Using: /usr/synopsys/HSPICE/hspice/O-2018.09-1/hspice/linux64/hspice  -i 'nmos.sp'
 ****** HSPICE -- O-2018.09-1 linux64 (Sep 27 2018) ******                      
  Copyright (c) 1986 - 2025 by Synopsys, Inc. All Rights Reserved.              
  This software and the associated documentation are proprietary
  to Synopsys, Inc. This software may only be used in accordance
  with the terms and conditions of a written license agreement with
  Synopsys, Inc. All other use, reproduction, or distribution of
  this software is strictly prohibited.
  Input File: nmos.sp                                                           
  Command line options: /usr/synopsys/HSPICE/hspice/O-2018.09-1/hspice/linux64/hspice -i nmos.sp
 lic:  
 lic: FLEXlm: SDK_11.6.9.6 
 lic: USER:   mohammed             HOSTNAME: husynposyseng 
 lic: HOSTID: 005056ba9913         PID:      12582 
 lic: Using FLEXlm license file: 
 lic: 27020@husynposyseng 
 lic: Checkout 1 hspice 
 lic: License/Maintenance for hspice will expire on 31-jan-2026/2025.06 
 lic: 2(in_use)/100(total) FLOATING license(s) on SERVER 27020@husynposyseng 
 lic:   
1****** HSPICE -- O-2018.09-1 linux64 (Sep 27 2018) ******                      
 ******  
 * nmos.sp

 ****** circuit name directory
 circuit number to circuit name directory
   number circuitname                     definition         multiplier
        0 main circuit
        1 mmn.                            n105_hvt           1.00 
 ******  
 * nmos.sp

 ****** mos   model parameters tnom=  25.000 temp=  25.000 ******
 Model file: ../../saed32nm.lib
 Model line:         1730
 Model Name: n105_hvt  
 BSIM4 Model (Level 54)
    MOBMOD = 0
    BINUNIT = 1
    PARAMCHK = 0
    CAPMOD = 2
    DIOMOD = 1
    RDSMOD = 0
    TRNQSMOD = 0
    ACNQSMOD = 0
    RBODYMOD = 0
    RGATEMOD = 0
    PERMOD = 1
    GEOMOD = 0
    RGEOMOD = 0
    FNOIMOD = 1
    TNOIMOD = 0
    IGCMOD = 1
    IGBMOD = 1
    STIMOD = 1
    VBFWDMOD = 0
    VERSION =    4.5 
    TOXREF = 2.39e-09 
    TOXE = 2.39e-09 
    TOXP = 2.24e-09 
    TOXM = 2.39e-09 
    DTOX =      0 
    EPSROX =    3.9 
    CDSC =      0 
    CDSCB = -0.00415 
    CDSCD =      0 
    CIT =      0 
    NFACTOR =    1.9 
    XJ =  1e-07 
    VSAT = 2.141e+05 
    A0 =    1.8 
    AGS =  1.232 
    A1 =      0 
    A2 =    0.4 
    AT = 0.00122 
    KETA =      0 
    NSUB =  6e+16 
    NDEP =  5e+17 
    NSD =  1e+20 
    NGATE =  1e+23 
    GAMMA1 =      0 
    GAMMA2 =      0 
    VBX =      0 
    VBM =     -3 
    XT = 1.55e-07 
    K1 = 0.3435 
    KT1 = -0.2796 
    KT1L =  1e-11 
    KT2 = -0.0232 
    K2 = -0.03171 
    K3 =  -2.15 
    K3B =  -0.22 
    LPE0 =  1e-08 
    LPEB =  2e-08 
    DVTP0 = 1.2e-06 
    DVTP1 =      0 
    W0 =      0 
    DVT0 =  3.571 
    DVT1 =    0.8 
    DVT2 =   0.06 
    DVT0W = -0.002336 
    DVT1W = 4.278e+05 
    DVT2W =   0.15 
    DROUT =   0.06 
    DSUB =    0.9 
    VTH0 =  0.447 
    EU =   1.67 
    UA = 9.209e-10 
    UA1 = 0.003827 
    UB = 2.207e-18 
    UB1 = -0.004406 
    UC = 2.6e-10 
    UC1 =      0 
    U0 =   1900 
    UTE =  -1.91 
    VOFF = -0.1554 
    VOFFL = -2.94e-09 
    MINV = -0.168 
    FPROUT =     50 
    PDITS = 0.5299 
    PDITSD =    0.9 
    PDITSL = 2.5e+06 
    DELTA =  0.005 
    RDSW =  400.5 
    RDSWMIN =      0 
    RDWMIN =    180 
    RSWMIN =    180 
    RDW =    100 
    RSW =    100 
    PRWG =      0 
    PRWB =    0.1 
    PRT =  0.015 
    ETA0 =  0.263 
    ETAB =  -0.12 
    PCLM = 0.5198 
    PDIBLC1 = 0.00015 
    PDIBLC2 =  0.025 
    PDIBLCB =   -0.7 
    PSCBE1 =  5e+09 
    PSCBE2 =  5e-06 
    PVAG =      6 
    WR =      1 
    DWG =      0 
    DWB =      0 
    XW = 4.3e-07 
    XWREF = 4.3e-07 
    XL =  2e-09 
    XLREF =  2e-09 
    B0 =      0 
    B1 =      0 
    ALPHA0 =  4e-12 
    ALPHA1 =      0 
    AGIDL = 1.5e-10 
    BGIDL = 9.749e+08 
    CGIDL =    3.2 
    PHIN =    0.1 
    EGIDL =   0.01 
    AIGC = 0.01086 
    BIGC = 0.0009868 
    CIGC = 0.000296 
    AIGSD = 0.00889 
    BIGSD = 0.0007742 
    CIGSD = 0.01464 
    AIGBACC = 0.01356 
    BIGBACC = 0.00279 
    CIGBACC = 0.01086 
    AIGBINV = 0.01142 
    BIGBINV = 0.001212 
    CIGBINV = 0.001479 
    NIGC =  3.294 
    NIGBINV =      3 
    NIGBACC =   8.23 
    NTOX =      1 
    EIGBINV =    1.1 
    PIGCD =      1 
    POXEDGE =  1.276 
    XRCRG1 =     12 
    TNOIA =    1.5 
    TNOIB =    3.5 
    NTNOI =      1 
    XRCRG2 =      1 
    BETA0 =      2 
    IJTHDFWD =    0.1 
    IJTHSFWD =    0.1 
    IJTHDREV =    0.1 
    IJTHSREV =    0.1 
    XJBVD =      1 
    XJBVS =      1 
    BVD =     12 
    BVS =     12 
    VFB =     -1 
    GBMIN =  1e-12 
    RBDB =     50 
    RBPB =     50 
    RBSB =     50 
    RBPS =     50 
    RBPD =     50 
    CGSL = 1.765e-10 
    CGDL = 1.077e-09 
    CKAPPAS =    4.5 
    CKAPPAD =    4.5 
    CF =      0 
    CLC =      0 
    CLE =    0.6 
    DWC =      0 
    DLC = 7.834e-09 
    DLCIG =  5e-09 
    DWJ =      0 
    VFBCV =     -1 
    ACDE =    0.4 
    MOIN =      5 
    NOFF =  2.118 
    VOFFCV = -0.2843 
    DMCG =  7e-08 
    DMCI = 3.5e-08 
    DMDG =  6e-08 
    DMCGT =      0 
    XGW =  4e-08 
    XGL = -2e-09 
    RSHG =     11 
    NGCON =      1 
    TCJ = 0.0007111 
    TPB = 0.001251 
    TCJSW = 0.0005498 
    TPBSW = 0.00108 
    TCJSWG = 6.6e-05 
    TPBSWG = 0.002588 
    SK0 =      0 
    SK1 =      0 
    SK2 =      0 
    SL =  2e-06 
    SW =  2e-06 
    K =      0 
    LNFACTOR =   0.05 
    LLPE0 = 2.5e-09 
    LUTE = 0.03886 
    LBGIDL = -5e+06 
    LAIGC = -7.7e-06 
    LNOFF =   0.08 
    WU0 =  56.01 
    PVSAT =  223.3 
    TNOM =  298.1 
    CGSO = 5.1e-11 
    CGDO = 5.1e-11 
    CGBO =  1e-12 
    XPART =      0 
    RSH =     12 
    JSS =  1e-06 
    JSWS = 1.484e-13 
    JSWGS = 7.172e-13 
    PBS = 0.8977 
    MJS = 0.4077 
    PBSWS =      1 
    MJSWS = 0.5128 
    CJS = 0.1935 
    CJSWS = 8.2e-11 
    NJS =  1.104 
    PBSWGS =  1.442 
    MJSWGS =   0.98 
    CJSWGS = 3.2e-10 
    XTIS =   -0.6 
    JSD =  1e-06 
    JSWD = 1.484e-13 
    JSWGD = 7.172e-13 
    PBD = 0.8977 
    MJD = 0.4077 
    PBSWD =      1 
    MJSWD = 0.5128 
    CJD = 0.1935 
    CJSWD = 8.2e-11 
    NJD =  1.104 
    PBSWGD =  1.442 
    MJSWGD =   0.98 
    CJSWGD = 3.2e-10 
    XTID =   -0.6 
    LMLT =      1 
    WMLT =      1 
    LINT = 1.934e-10 
    LL =      0 
    LLC =      0 
    LLN =      1 
    LW =      0 
    LWC =      0 
    LWN =      1 
    LWL =      0 
    LWLC =      0 
    LMIN =      0 
    LMAX =      1 
    WINT =      0 
    WL =      0 
    WLC =      0 
    WLN =      1 
    WW =      0 
    WWC =      0 
    WWN =      1 
    WWL =      0 
    WWLC =      0 
    WMIN =      0 
    WMAX =      1 
    NOIA = 6.72e+41 
    NOIB = 5.413e+23 
    NOIC = 2.288e+09 
    EM = 4.1e+07 
    EF =   0.95 
    AF =      1 
    KF = 1.5e-27 
    TRS =      0 
    TRD =      0 
    TEMPMOD  =      1 
    LAMBDA   =      0 
    VTL      =  2e+05 m/s
    LC       =  5e-09 
    XN       =      3 
    LLAMBDA  =      0 
    LVTL     =      0 
    LXN      =      0 
    WLAMBDA  =      0 
    WVTL     =      0 
    WXN      =      0 
    PLAMBDA  =      0 
    PVTL     =      0 
    PXN      =      0 
    RNOIA    =  0.577 
    RNOIB    = 0.5164 
    SAREF(SA0) = 4.48e-07 m
    SBREF(SB0) = 4.48e-07 m
    WLOD     =      0 m
    KU0      =      0 1/m
    KVSAT    =      0 
    KVTH0    = 6.5e-10 m
    TKU0     =      0 
    LLODKU0  =      0 
    WLODKU0  =      0 
    LLODVTH  =      0 
    WLODVTH  =      0 
    LKU0     =      0 
    WKU0     =      0 
    PKU0     =      0 
    LKVTH0   =      0 
    WKVTH0   =      0 
    PKVTH0   =      0 
    STK2     =      0 
    LODK2    =      1 
    STETA0   =      0 
    LODETA0  =      1 
    LXRCRG1  =      0 
    WXRCRG1  =      0 
    PXRCRG1  =      0 
    LXRCRG2  =      0 
    WXRCRG2  =      0 
    PXRCRG2  =      0 
     *** UCB's BSIM4.4.0 new diode model is activated. ***
    *** UCB's Diode Model Parameters ***
    JTSS         =  5e-06 
    JTSSWS       = 1.2e-10 
    JTSSWGS      = 1.634e-08 
    JTSD         =  5e-06 
    JTSSWD       = 1.2e-10 
    JTSSWGD      = 1.634e-08 
    NJTS         =     20 
    NJTSSW       =     60 
    NJTSSWG      =  7.854 
    XTSS         =   0.02 
    XTSSWS       = 0.5842 
    XTSSWGS      =   0.09 
    XTSD         =   0.02 
    XTSSWD       = 0.5842 
    XTSSWGD      =   0.09 
    TNJTS        =      0 
    TNJTSSW      =    0.8 
    TNJTSSWG     =   0.04 
    VFBSDOFF     =      0 
    LVFBSDOFF    =      0 
    WVFBSDOFF    =      0 
    PVFBSDOFF    =      0 
    LINTNOI      =      0 
    VTSS         =     20 
    VTSD         =     20 
    VTSSWS       =     10 
    VTSSWD       =     10 
    VTSSWGS      =   10.8 
    VTSSWGD      =   10.8 
    TTDIOMOD     =      1 
     *** UCB's BSIM4.5.0 new model is activated. ***
    UD         =      0 
    UD1        =      0 
    UP         =   0.77 
    LP         = 9.65e-08 
    TVOFF      = 0.000366 
    TVFBSDOFF  =      0 
    RBPS0      =     50 
    RBPSL      =      0 
    RBPSW      =      0 
    RBPSNF     =      0 
    RBPD0      =     50 
    RBPDL      =      0 
    RBPDW      =      0 
    RBPDNF     =      0 
    RBPBX0     =    100 
    RBPBXL     =      0 
    RBPBXW     =      0 
    RBPBXNF    =      0 
    RBPBY0     =    100 
    RBPBYL     =      0 
    RBPBYW     =      0 
    RBPBYNF    =      0 
    RBSBX0     =    100 
    RBSBY0     =    100 
    RBDBX0     =    100 
    RBDBY0     =    100 
    RBSDBXL    =      0 
    RBSDBXW    =      0 
    RBSDBXNF   =      0 
    RBSDBYL    =      0 
    RBSDBYW    =      0 
    RBSDBYNF   =      0 
    LUD        =      0 
    LUD1       =      0 
    LUP        =      0 
    LLP        =      0 
    LTVOFF     =      0 
    LTVFBSDOFF =      0 
    WUD        =      0 
    WUD1       =      0 
    WUP        =      0 
    WLP        =      0 
    WTVOFF     =      0 
    WTVFBSDOFF =      0 
    PUD        =      0 
    PUD1       =      0 
    PUP        =      0 
    PLP        =      0 
    PTVOFF     =      0 
    PTVFBSDOFF =      0 
    WEB        = 7.5e+05 
    WEC        = -1e+05 
    KVTH0WE    = 6.361e-07 
    K2WE       =      0 
    KU0WE      =      0 
    SCREF      = 2.5e-06 
    WPEMOD     =      1 
    LKVTH0WE   =      0 
    LK2WE      =      0 
    LKU0WE     =      0 
    WKVTH0WE   =      0 
    WK2WE      =      0 
    WKU0WE     =      0 
    PKVTH0WE   =      0 
    PK2WE      =      0 
    PKU0WE     =      0 
  **warning** (nmos.sp:16) Both nodes of element vgnd are connected together; Line ignored.
  

  **warning** the following singular supplies were terminated to 1 meg resistor 
          supply       node1            node2
(nmos.sp:15)vvdd                    0:vdd              defined in subckt 0                     0:0                defined in subckt 0               
      

Element variations(Local):   element              parameter
 *****************************************************************
 ******  option summary
 ******
 runlvl  = 3         bypass  = 2.0000    
  Opening plot unit= 15
 file=nmos.pa0

 ******
 * nmos.sp

 ****** dc transfer curves tnom=  25.000 temp=  70.000 ******
  *** parameter 0:vgs  =     0.            ***
  
x

 volt         current     current     current    current    
             vds         vgs         vvdd       mmn.main    
    0.       -9.7398e-22  2.0390e-21   -1.8000u  9.7398e-22 
   50.00000m  -17.3372p     3.3072f    -1.8000u   17.3372p  
  100.00000m  -31.5830p     8.6837f    -1.8000u   31.5830p  
  150.00000m  -48.4633p    16.5499f    -1.8000u   48.4633p  
  200.00000m  -69.9291p    27.3892f    -1.8000u   69.9291p  
  250.00000m  -97.7622p    41.7565f    -1.8000u   97.7622p  
  300.00000m -134.0123p    60.2872f    -1.8000u  134.0123p  
  350.00000m -181.2037p    83.7079f    -1.8000u  181.2037p  
  400.00000m -242.5058p   112.8481f    -1.8000u  242.5058p  
  450.00000m -321.9196p   148.6533f    -1.8000u  321.9196p  
  500.00000m -424.5014p   192.1994f    -1.8000u  424.5014p  
  550.00000m -556.6393p   244.7095f    -1.8000u  556.6393p  
  600.00000m -726.3970p   307.5718f    -1.8000u  726.3970p  
  650.00000m -943.9433p   382.3605f    -1.8000u  943.9433p  
  700.00000m   -1.2221n   470.8586f    -1.8000u    1.2221n  
  750.00000m   -1.5769n   575.0834f    -1.8000u    1.5769n  
  800.00000m   -2.0287n   697.3154f    -1.8000u    2.0287n  
  850.00000m   -2.6028n   840.1300f    -1.8000u    2.6028n  
  900.00000m   -3.3310n     1.0064p    -1.8000u    3.3310n  
  950.00000m   -4.2529n     1.1995p    -1.8000u    4.2529n  
    1.00000    -5.4181n     1.4230p    -1.8000u    5.4181n  
    1.05000    -6.8883n     1.6812p    -1.8000u    6.8883n  
    1.10000    -8.7404n     1.9786p    -1.8000u    8.7404n  
    1.15000   -11.0697n     2.3206p    -1.8000u   11.0697n  
    1.20000   -13.9947n     2.7130p    -1.8000u   13.9947n  
    1.25000   -17.6623n     3.1626p    -1.8000u   17.6623n  
    1.30000   -22.2543n     3.6767p    -1.8000u   22.2543n  
    1.35000   -27.9957n     4.2637p    -1.8000u   27.9957n  
    1.40000   -35.1641n     4.9330p    -1.8000u   35.1641n  
    1.45000   -44.1024n     5.6950p    -1.8000u   44.1024n  
    1.50000   -55.2328n     6.5617p    -1.8000u   55.2328n  
    1.55000   -69.0749n     7.5461p    -1.8000u   69.0749n  
    1.60000   -86.2666n     8.6629p    -1.8000u   86.2666n  
    1.65000  -107.5905n     9.9288p    -1.8000u  107.5905n  
    1.70000  -134.0046n    11.3622p    -1.8000u  134.0046n  
    1.75000  -166.6792n    12.9837p    -1.8000u  166.6792n  
    1.80000  -207.0408n    14.8165p    -1.8000u  207.0408n  
y
 ******
 * nmos.sp

 ****** dc transfer curves tnom=  25.000 temp=  70.000 ******
  *** parameter 0:vgs  =   200.0000m       ***
  
x

 volt         current    current    current    current   
             vds        vgs        vvdd       mmn.main   
    0.         11.5292f  -23.1117f   -1.8000u  -11.5292f 
   50.00000m   -1.2540n  -22.7139f   -1.8000u    1.2540n 
  100.00000m   -2.2805n  -23.5124f   -1.8000u    2.2805n 
  150.00000m   -3.4940n  -23.2805f   -1.8000u    3.4940n 
  200.00000m   -5.0336n  -21.6721f   -1.8000u    5.0336n 
  250.00000m   -7.0251n  -18.3625f   -1.8000u    7.0251n 
  300.00000m   -9.6117n  -12.9848f   -1.8000u    9.6117n 
  350.00000m  -12.9686n   -5.1181f   -1.8000u   12.9686n 
  400.00000m  -17.3137n    5.7214f   -1.8000u   17.3137n 
  450.00000m  -22.9202n   20.0885f   -1.8000u   22.9202n 
  500.00000m  -30.1296n   38.6188f   -1.8000u   30.1296n 
  550.00000m  -39.3691n   62.0391f   -1.8000u   39.3691n 
  600.00000m  -51.1711n   91.1787f   -1.8000u   51.1711n 
  650.00000m  -66.1980n  126.9832f   -1.8000u   66.1980n 
  700.00000m  -85.2708n  170.5286f   -1.8000u   85.2708n 
  750.00000m -109.4045n  223.0378f   -1.8000u  109.4045n 
  800.00000m -139.8495n  285.8992f   -1.8000u  139.8495n 
  850.00000m -178.1410n  360.6869f   -1.8000u  178.1410n 
  900.00000m -226.1567n  449.1839f   -1.8000u  226.1567n 
  950.00000m -286.1835n  553.4075f   -1.8000u  286.1835n 
    1.00000  -360.9950n  675.6382f   -1.8000u  360.9950n 
    1.05000  -453.9384n  818.4515f   -1.8000u  453.9384n 
    1.10000  -569.0321n  984.7535f   -1.8000u  569.0321n 
    1.15000  -711.0721n    1.1778p   -1.8000u  711.0721n 
    1.20000  -885.7451n    1.4013p   -1.8000u  885.7451n 
    1.25000    -1.0997u    1.6595p   -1.8000u    1.0997u 
    1.30000    -1.3609u    1.9569p   -1.8000u    1.3609u 
    1.35000    -1.6782u    2.2989p   -1.8000u    1.6782u 
    1.40000    -2.0621u    2.6913p   -1.8000u    2.0621u 
    1.45000    -2.5243u    3.1409p   -1.8000u    2.5243u 
    1.50000    -3.0778u    3.6550p   -1.8000u    3.0778u 
    1.55000    -3.7370u    4.2420p   -1.8000u    3.7370u 
    1.60000    -4.5174u    4.9113p   -1.8000u    4.5174u 
    1.65000    -5.4355u    5.6733p   -1.8000u    5.4355u 
    1.70000    -6.5078u    6.5400p   -1.8000u    6.5078u 
    1.75000    -7.7512u    7.5243p   -1.8000u    7.7512u 
    1.80000    -9.1813u    8.6412p   -1.8000u    9.1813u 
y
 ******
 * nmos.sp

 ****** dc transfer curves tnom=  25.000 temp=  70.000 ******
  *** parameter 0:vgs  =   400.0000m       ***
  
x

 volt         current    current    current    current   
             vds        vgs        vvdd       mmn.main   
    0.        165.6817f -331.4101f   -1.8000u -165.6817f 
   50.00000m  -80.8868n -318.0862f   -1.8000u   80.8868n 
  100.00000m -145.0297n -310.1255f   -1.8000u  145.0297n 
  150.00000m -218.6676n -305.0063f   -1.8000u  218.6676n 
  200.00000m -309.4987n -301.7848f   -1.8000u  309.4987n 
  250.00000m -423.6030n -301.6684f   -1.8000u  423.6030n 
  300.00000m -567.2444n -302.5538f   -1.8000u  567.2444n 
  350.00000m -747.4386n -302.3668f   -1.8000u  747.4386n 
  400.00000m -972.1947n -300.8060f   -1.8000u  972.1947n 
  450.00000m   -1.2506u -297.5517f   -1.8000u    1.2506u 
  500.00000m   -1.5931u -292.2387f   -1.8000u    1.5931u 
  550.00000m   -2.0110u -284.4471f   -1.8000u    2.0110u 
  600.00000m   -2.5169u -273.6942f   -1.8000u    2.5169u 
  650.00000m   -3.1242u -259.4263f   -1.8000u    3.1242u 
  700.00000m   -3.8470u -241.0091f   -1.8000u    3.8470u 
  750.00000m   -4.6995u -217.7173f   -1.8000u    4.6995u 
  800.00000m   -5.6959u -188.7230f   -1.8000u    5.6959u 
  850.00000m   -6.8490u -153.0823f   -1.8000u    6.8490u 
  900.00000m   -8.1705u -109.7210f   -1.8000u    8.1705u 
  950.00000m   -9.6695u  -57.4179f   -1.8000u    9.6695u 
    1.00000   -11.3521u    5.2135f   -1.8000u   11.3521u 
    1.05000   -13.2203u   79.7454f   -1.8000u   13.2203u 
    1.10000   -15.2721u  167.9588f   -1.8000u   15.2721u 
    1.15000   -17.5004u  271.8690f   -1.8000u   17.5004u 
    1.20000   -19.8934u  393.7543f   -1.8000u   19.8934u 
    1.25000   -22.4342u  536.1883f   -1.8000u   22.4342u 
    1.30000   -25.1018u  702.0749f   -1.8000u   25.1018u 
    1.35000   -27.8714u  894.6891f   -1.8000u   27.8714u 
    1.40000   -30.7154u    1.1177p   -1.8000u   30.7154u 
    1.45000   -33.6050u    1.3753p   -1.8000u   33.6050u 
    1.50000   -36.5109u    1.6722p   -1.8000u   36.5109u 
    1.55000   -39.4048u    2.0135p   -1.8000u   39.4048u 
    1.60000   -42.2605u    2.4053p   -1.8000u   42.2605u 
    1.65000   -45.0551u    2.8541p   -1.8000u   45.0551u 
    1.70000   -47.7695u    3.3674p   -1.8000u   47.7695u 
    1.75000   -50.3891u    3.9536p   -1.8000u   50.3891u 
    1.80000   -52.9036u    4.6220p   -1.8000u   52.9036u 
y
 ******
 * nmos.sp

 ****** dc transfer curves tnom=  25.000 temp=  70.000 ******
  *** parameter 0:vgs  =   600.0000m       ***
  
x

 volt         current    current    current    current   
             vds        vgs        vvdd       mmn.main   
    0.        918.2890f   -1.8366p   -1.8000u -918.2890f 
   50.00000m   -2.4456u   -1.7897p   -1.8000u    2.4456u 
  100.00000m   -4.0700u   -1.7649p   -1.8000u    4.0700u 
  150.00000m   -5.6079u   -1.7500p   -1.8000u    5.6079u 
  200.00000m   -7.2227u   -1.7396p   -1.8000u    7.2227u 
  250.00000m   -8.9676u   -1.7326p   -1.8000u    8.9676u 
  300.00000m  -10.8619u   -1.7285p   -1.8000u   10.8619u 
  350.00000m  -12.9104u   -1.7267p   -1.8000u   12.9104u 
  400.00000m  -15.1101u   -1.7271p   -1.8000u   15.1101u 
  450.00000m  -17.4528u   -1.7308p   -1.8000u   17.4528u 
  500.00000m  -19.9260u   -1.7358p   -1.8000u   19.9260u 
  550.00000m  -22.5150u   -1.7400p   -1.8000u   22.5150u 
  600.00000m  -25.2029u   -1.7432p   -1.8000u   25.2029u 
  650.00000m  -27.9722u   -1.7451p   -1.8000u   27.9722u 
  700.00000m  -30.8054u   -1.7452p   -1.8000u   30.8054u 
  750.00000m  -33.6854u   -1.7432p   -1.8000u   33.6854u 
  800.00000m  -36.5967u   -1.7387p   -1.8000u   36.5967u 
  850.00000m  -39.5250u   -1.7309p   -1.8000u   39.5250u 
  900.00000m  -42.4584u   -1.7195p   -1.8000u   42.4584u 
  950.00000m  -45.3869u   -1.7035p   -1.8000u   45.3869u 
    1.00000   -48.3030u   -1.6823p   -1.8000u   48.3030u 
